      Freq,    Re(Vin),    Im(Vin),   Re(Vout),   Im(Vout),    Re(Iin),    Im(Iin),   Re(Iout),   Im(Iout),    Re(Pin),    Im(Pin),   Re(Zout),   Im(Zout),   Re(Pout),   Im(Pout),    Re(Zin),    Im(Zin),     Re(Av),     Im(Av),     Re(Ai),     Im(Ai)
        Hz,          V,          V,          V,          V,          A,          A,          A,          A,          W,          W,       Ohms,       Ohms,          W,          W,       Ohms,       Ohms,          L,          L,          L,          L
 1.000e+01,  3.750e+00, -3.122e-06,  1.250e+00, -9.366e-06,  2.500e-02,  6.244e-08,  2.500e-02, -1.873e-07,  9.375e-02, -3.122e-07,  1.500e+02, -4.496e-03,  3.125e-02,  7.941e-23,  1.500e+02, -4.995e-04,  3.333e-01, -2.220e-06,  1.000e+00, -9.990e-06
 2.041e+05,  3.740e+00, -6.226e-02,  1.221e+00, -1.868e-01,  2.519e-02,  1.245e-03,  2.443e-02, -3.736e-03,  9.415e-02, -6.226e-03,  1.092e+02, -6.677e+01,  3.054e-02,  8.674e-19,  1.480e+02, -9.788e+00,  3.273e-01, -4.449e-02,  9.601e-01, -1.958e-01
 4.082e+05,  3.714e+00, -1.165e-01,  1.143e+00, -3.496e-01,  2.571e-02,  2.331e-03,  2.286e-02, -6.992e-03,  9.523e-02, -1.165e-02,  6.008e+01, -7.350e+01,  2.858e-02, -3.469e-18,  1.429e+02, -1.748e+01,  3.104e-01, -8.438e-02,  8.574e-01, -3.496e-01
 6.123e+05,  3.678e+00, -1.579e-01,  1.033e+00, -4.737e-01,  2.645e-02,  3.158e-03,  2.065e-02, -9.475e-03,  9.677e-02, -1.579e-02,  3.435e+01, -6.303e+01,  2.582e-02,  3.469e-18,  1.364e+02, -2.226e+01,  2.858e-01, -1.165e-01,  7.277e-01, -4.451e-01
 8.163e+05,  3.637e+00, -1.855e-01,  9.097e-01, -5.564e-01,  2.727e-02,  3.709e-03,  1.819e-02, -1.113e-02,  9.848e-02, -1.855e-02,  2.147e+01, -5.253e+01,  2.274e-02,  0.000e+00,  1.300e+02, -2.449e+01,  2.573e-01, -1.399e-01,  6.006e-01, -4.898e-01
 1.020e+06,  3.596e+00, -2.010e-01,  7.889e-01, -6.031e-01,  2.807e-02,  4.021e-03,  1.578e-02, -1.206e-02,  1.002e-01, -2.010e-02,  1.449e+01, -4.431e+01,  1.972e-02,  1.735e-18,  1.245e+02, -2.500e+01,  2.280e-01, -1.550e-01,  4.904e-01, -4.999e-01
 1.224e+06,  3.560e+00, -2.076e-01,  6.787e-01, -6.227e-01,  2.881e-02,  4.151e-03,  1.357e-02, -1.245e-02,  1.017e-01, -2.076e-02,  1.037e+01, -3.805e+01,  1.697e-02,  0.000e+00,  1.200e+02, -2.450e+01,  2.002e-01, -1.633e-01,  4.006e-01, -4.900e-01
 1.429e+06,  3.528e+00, -2.079e-01,  5.825e-01, -6.236e-01,  2.945e-02,  4.157e-03,  1.165e-02, -1.247e-02,  1.030e-01, -2.079e-02,  7.759e+00, -3.322e+01,  1.456e-02, -1.735e-18,  1.165e+02, -2.350e+01,  1.750e-01, -1.665e-01,  3.293e-01, -4.700e-01
 1.633e+06,  3.500e+00, -2.042e-01,  5.007e-01, -6.125e-01,  3.000e-02,  4.083e-03,  1.001e-02, -1.225e-02,  1.042e-01, -2.042e-02,  6.014e+00, -2.943e+01,  1.252e-02,  2.602e-18,  1.137e+02, -2.228e+01,  1.527e-01, -1.661e-01,  2.732e-01, -4.456e-01
 1.837e+06,  3.477e+00, -1.981e-01,  4.319e-01, -5.944e-01,  3.045e-02,  3.963e-03,  8.639e-03, -1.189e-02,  1.051e-01, -1.981e-02,  4.792e+00, -2.638e+01,  1.080e-02, -1.735e-18,  1.114e+02, -2.101e+01,  1.335e-01, -1.633e-01,  2.290e-01, -4.202e-01
 2.041e+06,  3.458e+00, -1.909e-01,  3.744e-01, -5.726e-01,  3.084e-02,  3.817e-03,  7.489e-03, -1.145e-02,  1.059e-01, -1.909e-02,  3.905e+00, -2.389e+01,  9.361e-03,  0.000e+00,  1.097e+02, -1.977e+01,  1.171e-01, -1.591e-01,  1.939e-01, -3.954e-01
 2.245e+06,  3.442e+00, -1.830e-01,  3.264e-01, -5.491e-01,  3.116e-02,  3.660e-03,  6.529e-03, -1.098e-02,  1.066e-01, -1.830e-02,  3.242e+00, -2.181e+01,  8.161e-03, -4.337e-19,  1.083e+02, -1.860e+01,  1.030e-01, -1.540e-01,  1.658e-01, -3.719e-01
 2.449e+06,  3.429e+00, -1.751e-01,  2.862e-01, -5.252e-01,  3.143e-02,  3.502e-03,  5.725e-03, -1.050e-02,  1.071e-01, -1.751e-02,  2.734e+00, -2.006e+01,  7.156e-03,  0.000e+00,  1.072e+02, -1.751e+01,  9.107e-02, -1.485e-01,  1.431e-01, -3.502e-01
 2.653e+06,  3.417e+00, -1.673e-01,  2.524e-01, -5.018e-01,  3.165e-02,  3.345e-03,  5.049e-03, -1.004e-02,  1.076e-01, -1.673e-02,  2.336e+00, -1.857e+01,  6.311e-03,  0.000e+00,  1.062e+02, -1.651e+01,  8.086e-02, -1.429e-01,  1.246e-01, -3.303e-01
 2.857e+06,  3.408e+00, -1.598e-01,  2.239e-01, -4.793e-01,  3.184e-02,  3.195e-03,  4.478e-03, -9.586e-03,  1.080e-01, -1.598e-02,  2.018e+00, -1.728e+01,  5.597e-03,  0.000e+00,  1.055e+02, -1.560e+01,  7.213e-02, -1.373e-01,  1.093e-01, -3.120e-01
 3.061e+06,  3.400e+00, -1.526e-01,  1.996e-01, -4.579e-01,  3.200e-02,  3.053e-03,  3.993e-03, -9.159e-03,  1.083e-01, -1.526e-02,  1.761e+00, -1.616e+01,  4.991e-03,  4.337e-19,  1.048e+02, -1.477e+01,  6.464e-02, -1.318e-01,  9.659e-02, -2.954e-01
 3.265e+06,  3.393e+00, -1.459e-01,  1.789e-01, -4.378e-01,  3.214e-02,  2.919e-03,  3.579e-03, -8.756e-03,  1.086e-01, -1.459e-02,  1.550e+00, -1.517e+01,  4.473e-03,  0.000e+00,  1.043e+02, -1.401e+01,  5.818e-02, -1.265e-01,  8.590e-02, -2.802e-01
 3.469e+06,  3.387e+00, -1.396e-01,  1.611e-01, -4.189e-01,  3.226e-02,  2.792e-03,  3.223e-03, -8.377e-03,  1.089e-01, -1.396e-02,  1.375e+00, -1.429e+01,  4.028e-03,  2.168e-19,  1.038e+02, -1.332e+01,  5.258e-02, -1.215e-01,  7.684e-02, -2.663e-01
 3.673e+06,  3.382e+00, -1.337e-01,  1.458e-01, -4.012e-01,  3.236e-02,  2.675e-03,  2.915e-03, -8.024e-03,  1.091e-01, -1.337e-02,  1.227e+00, -1.351e+01,  3.644e-03,  0.000e+00,  1.035e+02, -1.268e+01,  4.772e-02, -1.167e-01,  6.912e-02, -2.537e-01
 3.878e+06,  3.377e+00, -1.282e-01,  1.324e-01, -3.847e-01,  3.245e-02,  2.564e-03,  2.648e-03, -7.693e-03,  1.093e-01, -1.282e-02,  1.102e+00, -1.281e+01,  3.310e-03, -2.168e-19,  1.031e+02, -1.210e+01,  4.346e-02, -1.122e-01,  6.248e-02, -2.420e-01
 4.082e+06,  3.374e+00, -1.231e-01,  1.207e-01, -3.693e-01,  3.253e-02,  2.462e-03,  2.415e-03, -7.385e-03,  1.094e-01, -1.231e-02,  9.957e-01, -1.218e+01,  3.018e-03,  3.253e-19,  1.028e+02, -1.157e+01,  3.973e-02, -1.080e-01,  5.673e-02, -2.313e-01
 4.286e+06,  3.370e+00, -1.183e-01,  1.105e-01, -3.549e-01,  3.260e-02,  2.366e-03,  2.210e-03, -7.097e-03,  1.096e-01, -1.183e-02,  9.037e-01, -1.161e+01,  2.763e-03, -2.168e-19,  1.026e+02, -1.107e+01,  3.644e-02, -1.040e-01,  5.173e-02, -2.215e-01
 4.490e+06,  3.367e+00, -1.138e-01,  1.015e-01, -3.414e-01,  3.266e-02,  2.276e-03,  2.030e-03, -6.828e-03,  1.097e-01, -1.138e-02,  8.239e-01, -1.109e+01,  2.537e-03,  1.084e-19,  1.024e+02, -1.062e+01,  3.353e-02, -1.003e-01,  4.735e-02, -2.124e-01
 4.694e+06,  3.364e+00, -1.096e-01,  9.350e-02, -3.288e-01,  3.271e-02,  2.192e-03,  1.870e-03, -6.577e-03,  1.098e-01, -1.096e-02,  7.541e-01, -1.061e+01,  2.337e-03,  2.168e-19,  1.022e+02, -1.020e+01,  3.094e-02, -9.673e-02,  4.350e-02, -2.040e-01
 4.898e+06,  3.362e+00, -1.057e-01,  8.640e-02, -3.171e-01,  3.276e-02,  2.114e-03,  1.728e-03, -6.341e-03,  1.099e-01, -1.057e-02,  6.929e-01, -1.017e+01,  2.160e-03,  2.168e-19,  1.020e+02, -9.809e+00,  2.863e-02, -9.341e-02,  4.009e-02, -1.962e-01
 5.102e+06,  3.360e+00, -1.020e-01,  8.006e-02, -3.060e-01,  3.280e-02,  2.040e-03,  1.601e-03, -6.121e-03,  1.100e-01, -1.020e-02,  6.388e-01, -9.768e+00,  2.001e-03, -1.084e-19,  1.019e+02, -9.446e+00,  2.657e-02, -9.028e-02,  3.706e-02, -1.889e-01
 5.306e+06,  3.358e+00, -9.857e-02,  7.438e-02, -2.957e-01,  3.284e-02,  1.971e-03,  1.488e-03, -5.914e-03,  1.101e-01, -9.857e-03,  5.908e-01, -9.395e+00,  1.859e-03, -1.084e-19,  1.017e+02, -9.108e+00,  2.471e-02, -8.733e-02,  3.436e-02, -1.822e-01
 5.510e+06,  3.356e+00, -9.533e-02,  6.927e-02, -2.860e-01,  3.287e-02,  1.907e-03,  1.385e-03, -5.720e-03,  1.101e-01, -9.533e-03,  5.480e-01, -9.050e+00,  1.732e-03,  0.000e+00,  1.016e+02, -8.793e+00,  2.304e-02, -8.455e-02,  3.195e-02, -1.759e-01
 5.714e+06,  3.355e+00, -9.228e-02,  6.466e-02, -2.768e-01,  3.290e-02,  1.846e-03,  1.293e-03, -5.537e-03,  1.102e-01, -9.228e-03,  5.097e-01, -8.729e+00,  1.617e-03,  1.084e-19,  1.015e+02, -8.498e+00,  2.153e-02, -8.193e-02,  2.977e-02, -1.700e-01
 5.918e+06,  3.353e+00, -8.941e-02,  6.049e-02, -2.682e-01,  3.293e-02,  1.788e-03,  1.210e-03, -5.365e-03,  1.103e-01, -8.941e-03,  4.752e-01, -8.430e+00,  1.512e-03, -5.421e-20,  1.014e+02, -8.221e+00,  2.016e-02, -7.945e-02,  2.781e-02, -1.644e-01
 6.122e+06,  3.352e+00, -8.671e-02,  5.670e-02, -2.601e-01,  3.296e-02,  1.734e-03,  1.134e-03, -5.203e-03,  1.103e-01, -8.671e-03,  4.442e-01, -8.150e+00,  1.418e-03,  0.000e+00,  1.013e+02, -7.962e+00,  1.891e-02, -7.711e-02,  2.603e-02, -1.592e-01
 6.327e+06,  3.351e+00, -8.415e-02,  5.326e-02, -2.525e-01,  3.298e-02,  1.683e-03,  1.065e-03, -5.049e-03,  1.104e-01, -8.415e-03,  4.161e-01, -7.889e+00,  1.331e-03,  5.421e-20,  1.012e+02, -7.718e+00,  1.777e-02, -7.489e-02,  2.442e-02, -1.544e-01
 6.531e+06,  3.350e+00, -8.174e-02,  5.011e-02, -2.452e-01,  3.300e-02,  1.635e-03,  1.002e-03, -4.904e-03,  1.104e-01, -8.174e-03,  3.905e-01, -7.644e+00,  1.253e-03,  0.000e+00,  1.011e+02, -7.488e+00,  1.674e-02, -7.279e-02,  2.295e-02, -1.498e-01
 6.735e+06,  3.349e+00, -7.945e-02,  4.724e-02, -2.384e-01,  3.302e-02,  1.589e-03,  9.447e-04, -4.767e-03,  1.105e-01, -7.945e-03,  3.673e-01, -7.413e+00,  1.181e-03,  5.421e-20,  1.011e+02, -7.271e+00,  1.578e-02, -7.080e-02,  2.161e-02, -1.454e-01
 6.939e+06,  3.348e+00, -7.728e-02,  4.460e-02, -2.319e-01,  3.304e-02,  1.546e-03,  8.919e-04, -4.637e-03,  1.105e-01, -7.728e-03,  3.460e-01, -7.196e+00,  1.115e-03,  0.000e+00,  1.010e+02, -7.066e+00,  1.491e-02, -6.890e-02,  2.039e-02, -1.413e-01
 7.143e+06,  3.347e+00, -7.523e-02,  4.217e-02, -2.257e-01,  3.305e-02,  1.505e-03,  8.434e-04, -4.514e-03,  1.105e-01, -7.523e-03,  3.266e-01, -6.992e+00,  1.054e-03,  0.000e+00,  1.010e+02, -6.872e+00,  1.411e-02, -6.710e-02,  1.926e-02, -1.374e-01
 7.347e+06,  3.347e+00, -7.327e-02,  3.993e-02, -2.198e-01,  3.307e-02,  1.465e-03,  7.986e-04, -4.396e-03,  1.106e-01, -7.327e-03,  3.087e-01, -6.798e+00,  9.983e-04, -2.711e-20,  1.009e+02, -6.688e+00,  1.336e-02, -6.539e-02,  1.822e-02, -1.338e-01
 7.551e+06,  3.346e+00, -7.141e-02,  3.787e-02, -2.142e-01,  3.308e-02,  1.428e-03,  7.573e-04, -4.285e-03,  1.106e-01, -7.141e-03,  2.923e-01, -6.615e+00,  9.467e-04,  2.711e-20,  1.009e+02, -6.514e+00,  1.268e-02, -6.376e-02,  1.727e-02, -1.303e-01
 7.755e+06,  3.345e+00, -6.964e-02,  3.596e-02, -2.089e-01,  3.309e-02,  1.393e-03,  7.191e-04, -4.179e-03,  1.106e-01, -6.964e-03,  2.772e-01, -6.442e+00,  8.989e-04, -5.421e-20,  1.008e+02, -6.348e+00,  1.204e-02, -6.220e-02,  1.639e-02, -1.270e-01
 7.959e+06,  3.345e+00, -6.796e-02,  3.419e-02, -2.039e-01,  3.311e-02,  1.359e-03,  6.837e-04, -4.077e-03,  1.106e-01, -6.796e-03,  2.631e-01, -6.277e+00,  8.547e-04, -2.711e-20,  1.008e+02, -6.190e+00,  1.145e-02, -6.072e-02,  1.557e-02, -1.238e-01
 8.163e+06,  3.344e+00, -6.635e-02,  3.254e-02, -1.990e-01,  3.312e-02,  1.327e-03,  6.508e-04, -3.981e-03,  1.107e-01, -6.635e-03,  2.502e-01, -6.121e+00,  8.136e-04,  0.000e+00,  1.007e+02, -6.040e+00,  1.091e-02, -5.930e-02,  1.481e-02, -1.208e-01
 8.367e+06,  3.344e+00, -6.481e-02,  3.101e-02, -1.944e-01,  3.313e-02,  1.296e-03,  6.203e-04, -3.889e-03,  1.107e-01, -6.481e-03,  2.381e-01, -5.972e+00,  7.753e-04,  0.000e+00,  1.007e+02, -5.897e+00,  1.040e-02, -5.795e-02,  1.411e-02, -1.179e-01
 8.571e+06,  3.343e+00, -6.334e-02,  2.959e-02, -1.900e-01,  3.314e-02,  1.267e-03,  5.918e-04, -3.801e-03,  1.107e-01, -6.334e-03,  2.270e-01, -5.830e+00,  7.397e-04, -1.355e-20,  1.007e+02, -5.760e+00,  9.924e-03, -5.665e-02,  1.345e-02, -1.152e-01
 8.776e+06,  3.343e+00, -6.194e-02,  2.826e-02, -1.858e-01,  3.314e-02,  1.239e-03,  5.652e-04, -3.716e-03,  1.107e-01, -6.194e-03,  2.165e-01, -5.695e+00,  7.065e-04,  0.000e+00,  1.006e+02, -5.630e+00,  9.481e-03, -5.541e-02,  1.284e-02, -1.126e-01
 8.980e+06,  3.342e+00, -6.059e-02,  2.702e-02, -1.818e-01,  3.315e-02,  1.212e-03,  5.403e-04, -3.635e-03,  1.107e-01, -6.059e-03,  2.068e-01, -5.566e+00,  6.754e-04, -1.355e-20,  1.006e+02, -5.505e+00,  9.066e-03, -5.422e-02,  1.227e-02, -1.101e-01
 9.184e+06,  3.342e+00, -5.930e-02,  2.585e-02, -1.779e-01,  3.316e-02,  1.186e-03,  5.171e-04, -3.558e-03,  1.108e-01, -5.930e-03,  1.977e-01, -5.443e+00,  6.463e-04,  0.000e+00,  1.006e+02, -5.386e+00,  8.678e-03, -5.308e-02,  1.174e-02, -1.077e-01
 9.388e+06,  3.342e+00, -5.806e-02,  2.476e-02, -1.742e-01,  3.317e-02,  1.161e-03,  4.953e-04, -3.484e-03,  1.108e-01, -5.806e-03,  1.892e-01, -5.325e+00,  6.191e-04,  1.355e-20,  1.006e+02, -5.271e+00,  8.314e-03, -5.198e-02,  1.124e-02, -1.054e-01
 9.592e+06,  3.341e+00, -5.687e-02,  2.374e-02, -1.706e-01,  3.318e-02,  1.137e-03,  4.748e-04, -3.412e-03,  1.108e-01, -5.687e-03,  1.813e-01, -5.212e+00,  5.935e-04, -1.355e-20,  1.005e+02, -5.162e+00,  7.972e-03, -5.093e-02,  1.077e-02, -1.032e-01
 9.796e+06,  3.341e+00, -5.573e-02,  2.278e-02, -1.672e-01,  3.318e-02,  1.115e-03,  4.556e-04, -3.344e-03,  1.108e-01, -5.573e-03,  1.738e-01, -5.103e+00,  5.695e-04,  2.711e-20,  1.005e+02, -5.056e+00,  7.651e-03, -4.992e-02,  1.033e-02, -1.011e-01
 1.000e+07,  3.341e+00, -5.464e-02,  2.188e-02, -1.639e-01,  3.319e-02,  1.093e-03,  4.375e-04, -3.278e-03,  1.108e-01, -5.464e-03,  1.668e-01, -4.999e+00,  5.469e-04, -2.711e-20,  1.005e+02, -4.955e+00,  7.349e-03, -4.895e-02,  9.920e-03, -9.910e-02
