      Freq,    Re(Vin),    Im(Vin),   Re(Vout),   Im(Vout),    Re(Iin),    Im(Iin),   Re(Iout),   Im(Iout),    Re(Pin),    Im(Pin),   Re(Zout),   Im(Zout),   Re(Pout),   Im(Pout),    Re(Zin),    Im(Zin),     Re(Av),     Im(Av),     Re(Ai),     Im(Ai)
        Hz,          V,          V,          V,          V,          A,          A,          A,          A,          W,          W,       Ohms,       Ohms,          W,          W,       Ohms,       Ohms,          L,          L,          L,          L
 1.000e+01,  2.500e+00, -3.907e-05,  2.500e+00, -8.777e-05,  5.000e-02,  7.815e-07,  5.000e-02, -1.755e-06,  1.250e-01, -3.907e-06,  5.000e+01, -1.563e-03,  1.250e-01,  0.000e+00,  5.000e+01, -1.563e-03,  1.000e+00, -1.948e-05,  1.000e+00, -5.074e-05
 2.041e+05,  1.771e+00, -2.914e-01,  1.790e+00, -1.559e+00,  6.458e-02,  5.827e-03,  3.579e-02, -3.118e-02,  1.127e-01, -2.914e-02,  3.606e+01, -2.440e+01,  1.127e-01, -2.776e-17,  2.679e+01, -6.929e+00,  1.125e+00, -6.954e-01,  5.065e-01, -5.285e-01
 4.082e+05,  1.454e+00,  1.072e+00,  2.834e-01, -1.982e+00,  7.091e-02, -2.144e-02,  5.667e-03, -3.963e-02,  8.015e-02,  1.072e-01,  1.669e+01, -2.752e+01,  8.015e-02,  0.000e+00,  1.461e+01,  1.953e+01, -5.245e-01, -9.759e-01,  2.281e-01, -4.900e-01
 6.123e+05,  3.116e+00,  1.934e+00, -7.265e-01, -1.266e+00,  3.767e-02, -3.867e-02, -1.453e-02, -2.532e-02,  4.262e-02,  1.934e-01,  6.209e+00, -2.197e+01,  4.262e-02,  0.000e+00,  1.462e+01,  6.634e+01, -3.503e-01, -1.889e-01,  1.482e-01, -5.201e-01
 8.163e+05,  4.638e+00,  8.801e-01, -8.276e-01, -4.663e-01,  7.230e-03, -1.760e-02, -1.655e-02, -9.327e-03,  1.805e-02,  8.801e-02,  2.159e+00, -1.643e+01,  1.805e-02, -8.674e-19,  4.984e+01,  2.431e+02, -1.906e-01, -6.437e-02,  1.229e-01, -9.908e-01
 1.020e+06,  4.851e+00, -6.038e-01, -5.942e-01, -7.287e-02,  2.981e-03,  1.208e-02, -1.188e-02, -1.457e-03,  7.167e-03, -6.038e-02,  7.853e-01, -1.264e+01,  7.167e-03,  5.421e-19,  4.632e+01, -3.903e+02, -1.188e-01, -2.981e-02, -3.427e-01,  8.995e-01
 1.224e+06,  4.364e+00, -1.620e+00, -3.806e-01,  6.016e-02,  1.271e-02,  3.241e-02, -7.612e-03,  1.203e-03,  2.969e-03, -1.620e-01,  3.130e-01, -1.018e+01,  2.969e-03, -1.084e-19,  2.450e+00, -1.337e+02, -8.113e-02, -1.634e-02, -4.767e-02,  2.162e-01
 1.429e+06,  3.721e+00, -2.166e+00, -2.410e-01,  9.074e-02,  2.559e-02,  4.333e-02, -4.821e-03,  1.815e-03,  1.327e-03, -2.166e-01,  1.373e-01, -8.521e+00,  1.327e-03,  0.000e+00,  5.240e-01, -8.556e+01, -5.899e-02, -9.957e-03, -1.766e-02,  1.008e-01
 1.633e+06,  3.125e+00, -2.414e+00, -1.559e-01,  8.785e-02,  3.751e-02,  4.828e-02, -3.118e-03,  1.757e-03,  6.404e-04, -2.414e-01,  6.559e-02, -7.333e+00,  6.404e-04,  5.421e-20,  1.713e-01, -6.458e+01, -4.485e-02, -6.531e-03, -8.590e-03,  5.790e-02
 1.837e+06,  2.625e+00, -2.494e+00, -1.038e-01,  7.606e-02,  4.751e-02,  4.987e-02, -2.076e-03,  1.521e-03,  3.313e-04, -2.494e-01,  3.372e-02, -6.443e+00,  3.313e-04,  2.711e-20,  6.983e-02, -5.256e+01, -3.526e-02, -4.521e-03, -4.802e-03,  3.706e-02
 2.041e+06,  2.219e+00, -2.482e+00, -7.124e-02,  6.341e-02,  5.563e-02,  4.965e-02, -1.425e-03,  1.268e-03,  1.819e-04, -2.482e-01,  1.845e-02, -5.752e+00,  1.819e-04, -1.355e-20,  3.273e-02, -4.465e+01, -2.846e-02, -3.262e-03, -2.932e-03,  2.542e-02
 2.245e+06,  1.891e+00, -2.424e+00, -5.026e-02,  5.226e-02,  6.218e-02,  4.847e-02, -1.005e-03,  1.045e-03,  1.051e-04, -2.424e-01,  1.063e-02, -5.198e+00,  1.051e-04,  1.355e-20,  1.692e-02, -3.899e+01, -2.346e-02, -2.432e-03, -1.905e-03,  1.829e-02
 2.449e+06,  1.626e+00, -2.342e+00, -3.636e-02,  4.304e-02,  6.747e-02,  4.683e-02, -7.272e-04,  8.608e-04,  6.348e-05, -2.342e-01,  6.407e-03, -4.743e+00,  6.348e-05,  0.000e+00,  9.411e-03, -3.471e+01, -1.967e-02, -1.863e-03, -1.297e-03,  1.366e-02
 2.653e+06,  1.411e+00, -2.250e+00, -2.689e-02,  3.560e-02,  7.179e-02,  4.500e-02, -5.378e-04,  7.119e-04,  3.980e-05, -2.250e-01,  4.011e-03, -4.364e+00,  3.980e-05, -3.388e-21,  5.545e-03, -3.134e+01, -1.674e-02, -1.458e-03, -9.161e-04,  1.049e-02
 2.857e+06,  1.233e+00, -2.155e+00, -2.029e-02,  2.963e-02,  7.533e-02,  4.310e-02, -4.057e-04,  5.925e-04,  2.578e-05, -2.155e-01,  2.596e-03, -4.041e+00,  2.578e-05,  0.000e+00,  3.423e-03, -2.861e+01, -1.441e-02, -1.164e-03, -6.668e-04,  8.247e-03
 3.061e+06,  1.087e+00, -2.062e+00, -1.557e-02,  2.484e-02,  7.827e-02,  4.124e-02, -3.115e-04,  4.967e-04,  1.719e-05, -2.062e-01,  1.729e-03, -3.764e+00,  1.719e-05,  0.000e+00,  2.196e-03, -2.635e+01, -1.254e-02, -9.433e-04, -4.976e-04,  6.609e-03
 3.265e+06,  9.638e-01, -1.972e+00, -1.214e-02,  2.097e-02,  8.072e-02,  3.944e-02, -2.429e-04,  4.195e-04,  1.175e-05, -1.972e-01,  1.181e-03, -3.522e+00,  1.175e-05,  8.470e-22,  1.455e-03, -2.443e+01, -1.101e-02, -7.754e-04, -3.792e-04,  5.382e-03
 3.469e+06,  8.601e-01, -1.887e+00, -9.604e-03,  1.784e-02,  8.280e-02,  3.774e-02, -1.921e-04,  3.569e-04,  8.212e-06, -1.887e-01,  8.248e-04, -3.311e+00,  8.212e-06,  0.000e+00,  9.918e-04, -2.279e+01, -9.750e-03, -6.452e-04, -2.943e-04,  4.444e-03
 3.673e+06,  7.720e-01, -1.807e+00, -7.691e-03,  1.528e-02,  8.456e-02,  3.613e-02, -1.538e-04,  3.057e-04,  5.855e-06, -1.807e-01,  5.878e-04, -3.123e+00,  5.855e-06,  0.000e+00,  6.924e-04, -2.137e+01, -8.692e-03, -5.427e-04, -2.320e-04,  3.714e-03
 3.878e+06,  6.966e-01, -1.731e+00, -6.229e-03,  1.318e-02,  8.607e-02,  3.463e-02, -1.246e-04,  2.636e-04,  4.249e-06, -1.731e-01,  4.264e-04, -2.956e+00,  4.249e-06, -6.353e-22,  4.937e-04, -2.012e+01, -7.797e-03, -4.608e-04, -1.855e-04,  3.137e-03
 4.082e+06,  6.315e-01, -1.661e+00, -5.097e-03,  1.143e-02,  8.737e-02,  3.322e-02, -1.019e-04,  2.287e-04,  3.134e-06, -1.661e-01,  3.144e-04, -2.806e+00,  3.134e-06,  2.118e-22,  3.587e-04, -1.901e+01, -7.034e-03, -3.946e-04, -1.501e-04,  2.674e-03
 4.286e+06,  5.750e-01, -1.595e+00, -4.210e-03,  9.977e-03,  8.850e-02,  3.190e-02, -8.420e-05,  1.995e-04,  2.345e-06, -1.595e-01,  2.352e-04, -2.670e+00,  2.345e-06, -2.118e-22,  2.650e-04, -1.802e+01, -6.378e-03, -3.405e-04, -1.228e-04,  2.299e-03
 4.490e+06,  5.256e-01, -1.534e+00, -3.507e-03,  8.753e-03,  8.949e-02,  3.067e-02, -7.015e-05,  1.751e-04,  1.778e-06, -1.534e-01,  1.783e-04, -2.547e+00,  1.778e-06,  0.000e+00,  1.987e-04, -1.714e+01, -5.809e-03, -2.959e-04, -1.014e-04,  1.991e-03
 4.694e+06,  4.823e-01, -1.476e+00, -2.945e-03,  7.719e-03,  9.035e-02,  2.952e-02, -5.890e-05,  1.544e-04,  1.365e-06, -1.476e-01,  1.368e-04, -2.435e+00,  1.365e-06, -1.588e-22,  1.511e-04, -1.634e+01, -5.314e-03, -2.588e-04, -8.456e-05,  1.736e-03
 4.898e+06,  4.441e-01, -1.422e+00, -2.490e-03,  6.839e-03,  9.112e-02,  2.845e-02, -4.981e-05,  1.368e-04,  1.059e-06, -1.422e-01,  1.062e-04, -2.333e+00,  1.059e-06,  0.000e+00,  1.163e-04, -1.561e+01, -4.879e-03, -2.276e-04, -7.107e-05,  1.523e-03
 5.102e+06,  4.102e-01, -1.372e+00, -2.120e-03,  6.086e-03,  9.180e-02,  2.744e-02, -4.240e-05,  1.217e-04,  8.306e-07, -1.372e-01,  8.323e-05, -2.238e+00,  8.306e-07,  0.000e+00,  9.049e-05, -1.495e+01, -4.495e-03, -2.012e-04, -6.017e-05,  1.344e-03
 5.306e+06,  3.800e-01, -1.325e+00, -1.816e-03,  5.438e-03,  9.240e-02,  2.650e-02, -3.632e-05,  1.088e-04,  6.574e-07, -1.325e-01,  6.586e-05, -2.152e+00,  6.574e-07, -2.647e-23,  7.115e-05, -1.434e+01, -4.156e-03, -1.788e-04, -5.129e-05,  1.192e-03
 5.510e+06,  3.530e-01, -1.281e+00, -1.564e-03,  4.878e-03,  9.294e-02,  2.562e-02, -3.129e-05,  9.756e-05,  5.249e-07, -1.281e-01,  5.258e-05, -2.071e+00,  5.249e-07,  0.000e+00,  5.647e-05, -1.378e+01, -3.853e-03, -1.596e-04, -4.399e-05,  1.062e-03
 5.714e+06,  3.288e-01, -1.239e+00, -1.355e-03,  4.392e-03,  9.342e-02,  2.478e-02, -2.710e-05,  8.784e-05,  4.225e-07, -1.239e-01,  4.231e-05, -1.997e+00,  4.225e-07,  1.323e-23,  4.522e-05, -1.326e+01, -3.582e-03, -1.430e-04, -3.795e-05,  9.502e-04
 5.918e+06,  3.069e-01, -1.200e+00, -1.179e-03,  3.967e-03,  9.386e-02,  2.400e-02, -2.358e-05,  7.935e-05,  3.426e-07, -1.200e-01,  3.431e-05, -1.927e+00,  3.426e-07,  0.000e+00,  3.650e-05, -1.279e+01, -3.339e-03, -1.287e-04, -3.291e-05,  8.538e-04
 6.122e+06,  2.872e-01, -1.163e+00, -1.031e-03,  3.596e-03,  9.426e-02,  2.327e-02, -2.062e-05,  7.191e-05,  2.798e-07, -1.163e-01,  2.802e-05, -1.863e+00,  2.798e-07, -1.323e-23,  2.969e-05, -1.234e+01, -3.119e-03, -1.162e-04, -2.869e-05,  7.700e-04
 6.327e+06,  2.692e-01, -1.129e+00, -9.053e-04,  3.268e-03,  9.462e-02,  2.257e-02, -1.811e-05,  6.537e-05,  2.300e-07, -1.129e-01,  2.303e-05, -1.802e+00,  2.300e-07, -1.323e-23,  2.431e-05, -1.193e+01, -2.921e-03, -1.053e-04, -2.512e-05,  6.969e-04
 6.531e+06,  2.529e-01, -1.096e+00, -7.982e-04,  2.979e-03,  9.494e-02,  2.192e-02, -1.596e-05,  5.959e-05,  1.903e-07, -1.096e-01,  1.905e-05, -1.746e+00,  1.903e-07,  0.000e+00,  2.004e-05, -1.154e+01, -2.741e-03, -9.570e-05, -2.209e-05,  6.327e-04
 6.735e+06,  2.381e-01, -1.065e+00, -7.064e-04,  2.723e-03,  9.524e-02,  2.129e-02, -1.413e-05,  5.447e-05,  1.583e-07, -1.065e-01,  1.585e-05, -1.692e+00,  1.583e-07,  6.617e-24,  1.662e-05, -1.118e+01, -2.577e-03, -8.723e-05, -1.951e-05,  5.763e-04
 6.939e+06,  2.245e-01, -1.035e+00, -6.275e-04,  2.496e-03,  9.551e-02,  2.071e-02, -1.255e-05,  4.991e-05,  1.324e-07, -1.035e-01,  1.326e-05, -1.642e+00,  1.324e-07,  6.617e-24,  1.387e-05, -1.084e+01, -2.428e-03, -7.974e-05, -1.729e-05,  5.263e-04
 7.143e+06,  2.120e-01, -1.007e+00, -5.592e-04,  2.292e-03,  9.576e-02,  2.015e-02, -1.118e-05,  4.585e-05,  1.114e-07, -1.007e-01,  1.115e-05, -1.595e+00,  1.114e-07, -3.309e-24,  1.163e-05, -1.052e+01, -2.291e-03, -7.309e-05, -1.538e-05,  4.820e-04
 7.347e+06,  2.005e-01, -9.810e-01, -5.000e-04,  2.111e-03,  9.599e-02,  1.962e-02, -1.000e-05,  4.221e-05,  9.409e-08, -9.810e-02,  9.418e-06, -1.551e+00,  9.409e-08,  6.617e-24,  9.802e-06, -1.022e+01, -2.165e-03, -6.715e-05, -1.373e-05,  4.426e-04
 7.551e+06,  1.900e-01, -9.559e-01, -4.484e-04,  1.947e-03,  9.620e-02,  1.912e-02, -8.969e-06,  3.895e-05,  7.987e-08, -9.559e-02,  7.994e-06, -1.509e+00,  7.987e-08, -3.309e-24,  8.302e-06, -9.936e+00, -2.050e-03, -6.184e-05, -1.229e-05,  4.073e-04
 7.755e+06,  1.802e-01, -9.319e-01, -4.033e-04,  1.800e-03,  9.640e-02,  1.864e-02, -8.066e-06,  3.601e-05,  6.809e-08, -9.319e-02,  6.815e-06, -1.469e+00,  6.809e-08,  1.654e-24,  7.063e-06, -9.668e+00, -1.943e-03, -5.708e-05, -1.104e-05,  3.757e-04
 7.959e+06,  1.712e-01, -9.092e-01, -3.637e-04,  1.668e-03,  9.658e-02,  1.818e-02, -7.275e-06,  3.336e-05,  5.829e-08, -9.092e-02,  5.833e-06, -1.431e+00,  5.829e-08,  0.000e+00,  6.035e-06, -9.414e+00, -1.845e-03, -5.279e-05, -9.939e-06,  3.473e-04
 8.163e+06,  1.628e-01, -8.874e-01, -3.289e-04,  1.548e-03,  9.674e-02,  1.775e-02, -6.578e-06,  3.096e-05,  5.009e-08, -8.874e-02,  5.013e-06, -1.395e+00,  5.009e-08,  0.000e+00,  5.178e-06, -9.173e+00, -1.753e-03, -4.892e-05, -8.975e-06,  3.217e-04
 8.367e+06,  1.550e-01, -8.667e-01, -2.981e-04,  1.439e-03,  9.690e-02,  1.733e-02, -5.962e-06,  2.879e-05,  4.321e-08, -8.667e-02,  4.324e-06, -1.361e+00,  4.321e-08,  0.000e+00,  4.459e-06, -8.944e+00, -1.669e-03, -4.542e-05, -8.125e-06,  2.985e-04
 8.571e+06,  1.478e-01, -8.469e-01, -2.708e-04,  1.340e-03,  9.704e-02,  1.694e-02, -5.417e-06,  2.681e-05,  3.740e-08, -8.469e-02,  3.743e-06, -1.328e+00,  3.740e-08,  8.272e-25,  3.854e-06, -8.727e+00, -1.590e-03, -4.225e-05, -7.374e-06,  2.775e-04
 8.776e+06,  1.411e-01, -8.279e-01, -2.466e-04,  1.250e-03,  9.718e-02,  1.656e-02, -4.932e-06,  2.501e-05,  3.249e-08, -8.279e-02,  3.251e-06, -1.297e+00,  3.249e-08,  0.000e+00,  3.343e-06, -8.520e+00, -1.517e-03, -3.937e-05, -6.708e-06,  2.585e-04
 8.980e+06,  1.348e-01, -8.098e-01, -2.250e-04,  1.168e-03,  9.730e-02,  1.620e-02, -4.501e-06,  2.337e-05,  2.831e-08, -8.098e-02,  2.833e-06, -1.268e+00,  2.831e-08,  0.000e+00,  2.910e-06, -8.322e+00, -1.449e-03, -3.674e-05, -6.115e-06,  2.412e-04
 9.184e+06,  1.289e-01, -7.924e-01, -2.058e-04,  1.093e-03,  9.742e-02,  1.585e-02, -4.115e-06,  2.186e-05,  2.475e-08, -7.924e-02,  2.476e-06, -1.240e+00,  2.475e-08,  8.272e-25,  2.540e-06, -8.134e+00, -1.385e-03, -3.434e-05, -5.586e-06,  2.253e-04
 9.388e+06,  1.234e-01, -7.758e-01, -1.885e-04,  1.024e-03,  9.753e-02,  1.552e-02, -3.770e-06,  2.049e-05,  2.170e-08, -7.758e-02,  2.171e-06, -1.213e+00,  2.170e-08,  8.272e-25,  2.224e-06, -7.954e+00, -1.325e-03, -3.214e-05, -5.114e-06,  2.109e-04
 9.592e+06,  1.183e-01, -7.598e-01, -1.730e-04,  9.611e-04,  9.763e-02,  1.520e-02, -3.461e-06,  1.922e-05,  1.907e-08, -7.598e-02,  1.908e-06, -1.187e+00,  1.907e-08, -4.136e-25,  1.954e-06, -7.782e+00, -1.270e-03, -3.013e-05, -4.690e-06,  1.976e-04
 9.796e+06,  1.134e-01, -7.444e-01, -1.591e-04,  9.030e-04,  9.773e-02,  1.489e-02, -3.182e-06,  1.806e-05,  1.681e-08, -7.444e-02,  1.682e-06, -1.162e+00,  1.681e-08,  4.136e-25,  1.720e-06, -7.617e+00, -1.217e-03, -2.829e-05, -4.309e-06,  1.854e-04
 1.000e+07,  1.089e-01, -7.297e-01, -1.466e-04,  8.494e-04,  9.782e-02,  1.459e-02, -2.931e-06,  1.699e-05,  1.486e-08, -7.297e-02,  1.487e-06, -1.138e+00,  1.486e-08,  0.000e+00,  1.519e-06, -7.459e+00, -1.168e-03, -2.659e-05, -3.967e-06,  1.743e-04
