      Freq,    Re(Vin),    Im(Vin),   Re(Vout),   Im(Vout),    Re(Iin),    Im(Iin),   Re(Iout),   Im(Iout),    Re(Pin),    Im(Pin),   Re(Zout),   Im(Zout),   Re(Pout),   Im(Pout),    Re(Zin),    Im(Zin),     Re(Av),     Im(Av),     Re(Ai),     Im(Ai)
        Hz,          V,          V,          V,          V,          A,          A,          A,          A,          W,          W,       Ohms,       Ohms,          W,          W,       Ohms,       Ohms,          L,          L,          L,          L
10.0,1.951e-5,3.977e-3,1.951e-5,3.977e-3,1.000e-1,-7.954e-5,3.902e-7,7.954e-5,1.635e-6,3.977e-4,1.635e-4,3.977e-2,3.164e-7,0.000e+3,1.635e-4,3.977e-2,1.000e+0,0.000e+3,3.269e-6,7.954e-4
2.041e+05,3.935e-1,-4.052e-1,3.935e-1,-4.052e-1,9.213e-2,8.105e-3,7.870e-3,-8.105e-3,3.297e-2,-4.052e-2,3.855e+0,-4.738e+0,6.381e-3,-4.337e-19,3.855e+0,-4.738e+0,1.000e+0,0.000e+3,7.709e-2,-9.475e-2
4.082e+05,1.529e-1,-3.172e-1,1.529e-1,-3.172e-1,9.694e-2,6.343e-3,3.058e-3,-6.343e-3,1.281e-2,-3.172e-2,1.357e+0,-3.360e+0,2.479e-3,0.000e+3,1.357e+0,-3.360e+0,1.000e+0,0.000e+3,2.714e-2,-6.721e-2
6.123e+05,7.572e-2,-2.359e-1,7.572e-2,-2.359e-1,9.849e-2,4.719e-3,1.514e-3,-4.719e-3,6.344e-3,-2.359e-2,6.526e-1,-2.427e+0,1.228e-3,0.000e+3,6.526e-1,-2.427e+0,1.000e+0,0.000e+3,1.305e-2,-4.854e-2
8.163e+05,4.437e-2,-1.844e-1,4.437e-2,-1.844e-1,9.911e-2,3.688e-3,8.874e-4,-3.688e-3,3.717e-3,-1.844e-2,3.779e-1,-1.875e+0,7.195e-4,0.000e+3,3.779e-1,-1.875e+0,1.000e+0,0.000e+3,7.558e-3,-3.749e-2
1.02e+06,2.895e-2,-1.505e-1,2.895e-2,-1.505e-1,9.942e-2,3.009e-3,5.791e-4,-3.009e-3,2.426e-3,-1.505e-2,2.452e-1,-1.521e+0,4.695e-4,0.000e+3,2.452e-1,-1.521e+0,1.000e+0,0.000e+3,4.904e-3,-3.042e-2
1.224e+06,2.032e-2,-1.268e-1,2.032e-2,-1.268e-1,9.959e-2,2.535e-3,4.065e-4,-2.535e-3,1.703e-3,-1.268e-2,1.716e-1,-1.277e+0,3.296e-4,0.000e+3,1.716e-1,-1.277e+0,1.000e+0,0.000e+3,3.431e-3,-2.554e-2
1.429e+06,1.503e-2,-1.094e-1,1.503e-2,-1.094e-1,9.970e-2,2.187e-3,3.006e-4,-2.187e-3,1.259e-3,-1.094e-2,1.266e-1,-1.100e+0,2.437e-4,0.000e+3,1.266e-1,-1.100e+0,1.000e+0,0.000e+3,2.533e-3,-2.199e-2
1.633e+06,1.156e-2,-9.611e-2,1.156e-2,-9.611e-2,9.977e-2,1.922e-3,2.311e-4,-1.922e-3,9.682e-4,-9.611e-3,9.724e-2,-9.652e-1,1.874e-4,0.000e+3,9.724e-2,-9.652e-1,1.000e+0,0.000e+3,1.945e-3,-1.930e-2
1.837e+06,9.158e-3,-8.568e-2,9.158e-3,-8.568e-2,9.982e-2,1.714e-3,1.832e-4,-1.714e-3,7.673e-4,-8.568e-3,7.699e-2,-8.597e-1,1.485e-4,0.000e+3,7.699e-2,-8.597e-1,1.000e+0,0.000e+3,1.540e-3,-1.719e-2
2.041e+06,7.433e-3,-7.728e-2,7.433e-3,-7.728e-2,9.985e-2,1.546e-3,1.487e-4,-1.546e-3,6.228e-4,-7.728e-3,6.245e-2,-7.749e-1,1.205e-4,-1.694e-21,6.245e-2,-7.749e-1,1.000e+0,0.000e+3,1.249e-3,-1.550e-2
2.245e+06,6.153e-3,-7.036e-2,6.153e-3,-7.036e-2,9.988e-2,1.407e-3,1.231e-4,-1.407e-3,5.155e-4,-7.036e-3,5.167e-2,-7.052e-1,9.978e-5,0.000e+3,5.167e-2,-7.052e-1,1.000e+0,0.000e+3,1.033e-3,-1.410e-2
2.449e+06,5.176e-3,-6.458e-2,5.176e-3,-6.458e-2,9.990e-2,1.292e-3,1.035e-4,-1.292e-3,4.337e-4,-6.458e-3,4.345e-2,-6.470e-1,8.394e-5,0.000e+3,4.345e-2,-6.470e-1,1.000e+0,0.000e+3,8.690e-4,-1.294e-2
2.653e+06,4.415e-3,-5.967e-2,4.415e-3,-5.967e-2,9.991e-2,1.193e-3,8.829e-5,-1.193e-3,3.699e-4,-5.967e-3,3.705e-2,-5.976e-1,7.159e-5,-8.470e-22,3.705e-2,-5.976e-1,1.000e+0,0.000e+3,7.410e-4,-1.195e-2
2.857e+06,3.809e-3,-5.545e-2,3.809e-3,-5.545e-2,9.992e-2,1.109e-3,7.619e-5,-1.109e-3,3.192e-4,-5.545e-3,3.196e-2,-5.552e-1,6.177e-5,0.000e+3,3.196e-2,-5.552e-1,1.000e+0,0.000e+3,6.392e-4,-1.110e-2
3.061e+06,3.320e-3,-5.178e-2,3.320e-3,-5.178e-2,9.993e-2,1.036e-3,6.641e-5,-1.036e-3,2.782e-4,-5.178e-3,2.785e-2,-5.184e-1,5.384e-5,4.235e-22,2.785e-2,-5.184e-1,1.000e+0,0.000e+3,5.571e-4,-1.037e-2
3.265e+06,2.920e-3,-4.857e-2,2.920e-3,-4.857e-2,9.994e-2,9.713e-4,5.839e-5,-9.713e-4,2.446e-4,-4.857e-3,2.449e-2,-4.862e-1,4.735e-5,0.000e+3,2.449e-2,-4.862e-1,1.000e+0,0.000e+3,4.898e-4,-9.724e-3
3.469e+06,2.587e-3,-4.573e-2,2.587e-3,-4.573e-2,9.995e-2,9.146e-4,5.175e-5,-9.146e-4,2.168e-4,-4.573e-3,2.170e-2,-4.577e-1,4.196e-5,0.000e+3,2.170e-2,-4.577e-1,1.000e+0,0.000e+3,4.340e-4,-9.155e-3
3.673e+06,2.309e-3,-4.320e-2,2.309e-3,-4.320e-2,9.995e-2,8.641e-4,4.617e-5,-8.641e-4,1.934e-4,-4.320e-3,1.936e-2,-4.324e-1,3.744e-5,4.235e-22,1.936e-2,-4.324e-1,1.000e+0,0.000e+3,3.872e-4,-8.648e-3
3.878e+06,2.073e-3,-4.094e-2,2.073e-3,-4.094e-2,9.996e-2,8.188e-4,4.145e-5,-8.188e-4,1.737e-4,-4.094e-3,1.738e-2,-4.097e-1,3.361e-5,0.000e+3,1.738e-2,-4.097e-1,1.000e+0,0.000e+3,3.476e-4,-8.195e-3
4.082e+06,1.871e-3,-3.890e-2,1.871e-3,-3.890e-2,9.996e-2,7.781e-4,3.742e-5,-7.781e-4,1.568e-4,-3.890e-3,1.569e-2,-3.893e-1,3.034e-5,0.000e+3,1.569e-2,-3.893e-1,1.000e+0,0.000e+3,3.137e-4,-7.786e-3
4.286e+06,1.697e-3,-3.706e-2,1.697e-3,-3.706e-2,9.997e-2,7.412e-4,3.395e-5,-7.412e-4,1.422e-4,-3.706e-3,1.423e-2,-3.708e-1,2.753e-5,2.118e-22,1.423e-2,-3.708e-1,1.000e+0,0.000e+3,2.846e-4,-7.416e-3
4.49e+06,1.547e-3,-3.538e-2,1.547e-3,-3.538e-2,9.997e-2,7.076e-4,3.094e-5,-7.076e-4,1.296e-4,-3.538e-3,1.297e-2,-3.540e-1,2.508e-5,2.118e-22,1.297e-2,-3.540e-1,1.000e+0,0.000e+3,2.594e-4,-7.080e-3
4.694e+06,1.416e-3,-3.385e-2,1.416e-3,-3.385e-2,9.997e-2,6.770e-4,2.831e-5,-6.770e-4,1.186e-4,-3.385e-3,1.187e-2,-3.387e-1,2.295e-5,2.118e-22,1.187e-2,-3.387e-1,1.000e+0,0.000e+3,2.373e-4,-6.773e-3
4.898e+06,1.300e-3,-3.244e-2,1.300e-3,-3.244e-2,9.997e-2,6.489e-4,2.600e-5,-6.489e-4,1.089e-4,-3.244e-3,1.090e-2,-3.246e-1,2.108e-5,0.000e+3,1.090e-2,-3.246e-1,1.000e+0,0.000e+3,2.180e-4,-6.492e-3
5.102e+06,1.198e-3,-3.115e-2,1.198e-3,-3.115e-2,9.998e-2,6.230e-4,2.397e-5,-6.230e-4,1.004e-4,-3.115e-3,1.005e-2,-3.116e-1,1.943e-5,0.000e+3,1.005e-2,-3.116e-1,1.000e+0,0.000e+3,2.009e-4,-6.232e-3
5.306e+06,1.108e-3,-2.995e-2,1.108e-3,-2.995e-2,9.998e-2,5.991e-4,2.216e-5,-5.991e-4,9.284e-5,-2.995e-3,9.288e-3,-2.997e-1,1.797e-5,-1.059e-22,9.288e-3,-2.997e-1,1.000e+0,0.000e+3,1.858e-4,-5.993e-3
5.51e+06,1.028e-3,-2.885e-2,1.028e-3,-2.885e-2,9.998e-2,5.769e-4,2.055e-5,-5.769e-4,8.610e-5,-2.885e-3,8.613e-3,-2.886e-1,1.666e-5,0.000e+3,8.613e-3,-2.886e-1,1.000e+0,0.000e+3,1.723e-4,-5.772e-3
5.714e+06,9.556e-4,-2.782e-2,9.556e-4,-2.782e-2,9.998e-2,5.564e-4,1.911e-5,-5.564e-4,8.007e-5,-2.782e-3,8.010e-3,-2.783e-1,1.550e-5,-1.059e-22,8.010e-3,-2.783e-1,1.000e+0,0.000e+3,1.602e-4,-5.566e-3
5.918e+06,8.909e-4,-2.686e-2,8.909e-4,-2.686e-2,9.998e-2,5.372e-4,1.782e-5,-5.372e-4,7.465e-5,-2.686e-3,7.467e-3,-2.687e-1,1.445e-5,0.000e+3,7.467e-3,-2.687e-1,1.000e+0,0.000e+3,1.493e-4,-5.374e-3
6.122e+06,8.326e-4,-2.597e-2,8.326e-4,-2.597e-2,9.998e-2,5.194e-4,1.665e-5,-5.194e-4,6.976e-5,-2.597e-3,6.978e-3,-2.598e-1,1.350e-5,0.000e+3,6.978e-3,-2.598e-1,1.000e+0,0.000e+3,1.396e-4,-5.195e-3
6.327e+06,7.798e-4,-2.513e-2,7.798e-4,-2.513e-2,9.998e-2,5.027e-4,1.560e-5,-5.027e-4,6.533e-5,-2.513e-3,6.535e-3,-2.514e-1,1.265e-5,-5.294e-23,6.535e-3,-2.514e-1,1.000e+0,0.000e+3,1.307e-4,-5.028e-3
6.531e+06,7.319e-4,-2.435e-2,7.319e-4,-2.435e-2,9.999e-2,4.870e-4,1.464e-5,-4.870e-4,6.132e-5,-2.435e-3,6.133e-3,-2.436e-1,1.187e-5,0.000e+3,6.133e-3,-2.436e-1,1.000e+0,0.000e+3,1.227e-4,-4.871e-3
6.735e+06,6.882e-4,-2.361e-2,6.882e-4,-2.361e-2,9.999e-2,4.722e-4,1.376e-5,-4.722e-4,5.766e-5,-2.361e-3,5.768e-3,-2.362e-1,1.116e-5,5.294e-23,5.768e-3,-2.362e-1,1.000e+0,0.000e+3,1.154e-4,-4.724e-3
6.939e+06,6.484e-4,-2.292e-2,6.484e-4,-2.292e-2,9.999e-2,4.584e-4,1.297e-5,-4.584e-4,5.432e-5,-2.292e-3,5.433e-3,-2.292e-1,1.051e-5,0.000e+3,5.433e-3,-2.292e-1,1.000e+0,0.000e+3,1.087e-4,-4.585e-3
7.143e+06,6.119e-4,-2.227e-2,6.119e-4,-2.227e-2,9.999e-2,4.453e-4,1.224e-5,-4.453e-4,5.126e-5,-2.227e-3,5.128e-3,-2.227e-1,9.922e-6,5.294e-23,5.128e-3,-2.227e-1,1.000e+0,0.000e+3,1.026e-4,-4.454e-3
7.347e+06,5.784e-4,-2.165e-2,5.784e-4,-2.165e-2,9.999e-2,4.329e-4,1.157e-5,-4.329e-4,4.846e-5,-2.165e-3,4.847e-3,-2.165e-1,9.379e-6,0.000e+3,4.847e-3,-2.165e-1,1.000e+0,0.000e+3,9.694e-5,-4.330e-3
7.551e+06,5.475e-4,-2.106e-2,5.475e-4,-2.106e-2,9.999e-2,4.213e-4,1.095e-5,-4.213e-4,4.588e-5,-2.106e-3,4.588e-3,-2.107e-1,8.879e-6,0.000e+3,4.588e-3,-2.107e-1,1.000e+0,0.000e+3,9.177e-5,-4.213e-3
7.755e+06,5.191e-4,-2.051e-2,5.191e-4,-2.051e-2,9.999e-2,4.102e-4,1.038e-5,-4.102e-4,4.349e-5,-2.051e-3,4.350e-3,-2.051e-1,8.418e-6,2.647e-23,4.350e-3,-2.051e-1,1.000e+0,0.000e+3,8.701e-5,-4.103e-3
7.959e+06,4.929e-4,-1.998e-2,4.929e-4,-1.998e-2,9.999e-2,3.997e-4,9.857e-6,-3.997e-4,4.129e-5,-1.998e-3,4.130e-3,-1.999e-1,7.992e-6,0.000e+3,4.130e-3,-1.999e-1,1.000e+0,0.000e+3,8.260e-5,-3.998e-3
8.163e+06,4.685e-4,-1.949e-2,4.685e-4,-1.949e-2,9.999e-2,3.897e-4,9.371e-6,-3.897e-4,3.926e-5,-1.949e-3,3.926e-3,-1.949e-1,7.598e-6,0.000e+3,3.926e-3,-1.949e-1,1.000e+0,0.000e+3,7.853e-5,-3.898e-3
8.367e+06,4.460e-4,-1.901e-2,4.460e-4,-1.901e-2,9.999e-2,3.802e-4,8.920e-6,-3.802e-4,3.737e-5,-1.901e-3,3.737e-3,-1.901e-1,7.232e-6,0.000e+3,3.737e-3,-1.901e-1,1.000e+0,0.000e+3,7.474e-5,-3.803e-3
8.571e+06,4.250e-4,-1.856e-2,4.250e-4,-1.856e-2,9.999e-2,3.712e-4,8.500e-6,-3.712e-4,3.561e-5,-1.856e-3,3.561e-3,-1.856e-1,6.892e-6,0.000e+3,3.561e-3,-1.856e-1,1.000e+0,0.000e+3,7.123e-5,-3.712e-3
8.776e+06,4.055e-4,-1.813e-2,4.055e-4,-1.813e-2,9.999e-2,3.625e-4,8.109e-6,-3.625e-4,3.397e-5,-1.813e-3,3.398e-3,-1.813e-1,6.575e-6,-2.647e-23,3.398e-3,-1.813e-1,1.000e+0,0.000e+3,6.795e-5,-3.626e-3
8.98e+06,3.873e-4,-1.772e-2,3.873e-4,-1.772e-2,9.999e-2,3.543e-4,7.745e-6,-3.543e-4,3.245e-5,-1.772e-3,3.245e-3,-1.772e-1,6.280e-6,0.000e+3,3.245e-3,-1.772e-1,1.000e+0,0.000e+3,6.490e-5,-3.544e-3
9.184e+06,3.702e-4,-1.732e-2,3.702e-4,-1.732e-2,9.999e-2,3.464e-4,7.405e-6,-3.464e-4,3.102e-5,-1.732e-3,3.103e-3,-1.732e-1,6.004e-6,0.000e+3,3.103e-3,-1.732e-1,1.000e+0,0.000e+3,6.205e-5,-3.465e-3
9.388e+06,3.543e-4,-1.695e-2,3.543e-4,-1.695e-2,9.999e-2,3.389e-4,7.087e-6,-3.389e-4,2.969e-5,-1.695e-3,2.969e-3,-1.695e-1,5.746e-6,0.000e+3,2.969e-3,-1.695e-1,1.000e+0,0.000e+3,5.938e-5,-3.390e-3
9.592e+06,3.394e-4,-1.659e-2,3.394e-4,-1.659e-2,9.999e-2,3.317e-4,6.788e-6,-3.317e-4,2.844e-5,-1.659e-3,2.844e-3,-1.659e-1,5.504e-6,1.323e-23,2.844e-3,-1.659e-1,1.000e+0,0.000e+3,5.688e-5,-3.318e-3
9.796e+06,3.254e-4,-1.624e-2,3.254e-4,-1.624e-2,9.999e-2,3.248e-4,6.509e-6,-3.248e-4,2.727e-5,-1.624e-3,2.727e-3,-1.624e-1,5.277e-6,1.323e-23,2.727e-3,-1.624e-1,1.000e+0,0.000e+3,5.454e-5,-3.249e-3
1e+07,3.123e-4,-1.591e-2,3.123e-4,-1.591e-2,9.999e-2,3.182e-4,6.246e-6,-3.182e-4,2.616e-5,-1.591e-3,2.617e-3,-1.591e-1,5.064e-6,0.000e+3,2.617e-3,-1.591e-1,1.000e+0,0.000e+3,5.234e-5,-3.182e-3
