      Freq,    Re(Vin),    Im(Vin),   Re(Vout),   Im(Vout),    Re(Iin),    Im(Iin),   Re(Iout),   Im(Iout),    Re(Pin),    Im(Pin),   Re(Zout),   Im(Zout),   Re(Pout),   Im(Pout),    Re(Zin),    Im(Zin),     Re(Av),     Im(Av),     Re(Ai),     Im(Ai)
        Hz,          V,          V,          V,          V,          A,          A,          A,          A,          W,          W,       Ohms,       Ohms,          W,          W,       Ohms,       Ohms,          L,          L,          L,          L
10.0,5.000e+0,-1.571e-3,1.105e-6,1.571e-3,2.211e-8,3.142e-5,2.211e-8,3.142e-5,6.119e-8,-1.571e-4,6.200e+1,-1.592e+5,4.935e-8,6.462e-27,6.200e+1,-1.592e+5,1.224e-7,3.142e-4,1.000e+0,0.000e+3
2.041e+05,4.958e+0,3.051e-1,4.250e-2,-3.051e-1,8.500e-4,-6.101e-3,8.500e-4,-6.101e-3,2.353e-3,3.051e-2,6.200e+1,8.039e+2,1.897e-3,0.000e+3,6.200e+1,8.039e+2,4.768e-3,-6.183e-2,1.000e+0,0.000e+3
4.082e+05,4.989e+0,1.536e-1,1.062e-2,-1.536e-1,2.125e-4,-3.073e-3,2.125e-4,-3.073e-3,5.882e-4,1.536e-2,6.200e+1,1.620e+3,4.743e-4,0.000e+3,6.200e+1,1.620e+3,1.180e-3,-3.083e-2,1.000e+0,0.000e+3
6.123e+05,4.995e+0,1.026e-1,4.722e-3,-1.026e-1,9.444e-5,-2.051e-3,9.444e-5,-2.051e-3,2.614e-4,1.026e-2,6.200e+1,2.432e+3,2.108e-4,-1.694e-21,6.200e+1,2.432e+3,5.236e-4,-2.054e-2,1.000e+0,0.000e+3
8.163e+05,4.997e+0,7.695e-2,2.656e-3,-7.695e-2,5.312e-5,-1.539e-3,5.312e-5,-1.539e-3,1.470e-4,7.695e-3,6.200e+1,3.245e+3,1.186e-4,0.000e+3,6.200e+1,3.245e+3,2.943e-4,-1.540e-2,1.000e+0,0.000e+3
1.02e+06,4.998e+0,6.158e-2,1.700e-3,-6.158e-2,3.400e-5,-1.232e-3,3.400e-5,-1.232e-3,9.410e-5,6.158e-3,6.200e+1,4.057e+3,7.589e-5,0.000e+3,6.200e+1,4.057e+3,1.883e-4,-1.232e-2,1.000e+0,0.000e+3
1.224e+06,4.999e+0,5.132e-2,1.181e-3,-5.132e-2,2.361e-5,-1.026e-3,2.361e-5,-1.026e-3,6.535e-5,5.132e-3,6.200e+1,4.869e+3,5.270e-5,0.000e+3,6.200e+1,4.869e+3,1.307e-4,-1.027e-2,1.000e+0,0.000e+3
1.429e+06,4.999e+0,4.399e-2,8.673e-4,-4.399e-2,1.735e-5,-8.798e-4,1.735e-5,-8.798e-4,4.801e-5,4.399e-3,6.200e+1,5.681e+3,3.872e-5,0.000e+3,6.200e+1,5.681e+3,9.605e-5,-8.801e-3,1.000e+0,0.000e+3
1.633e+06,4.999e+0,3.849e-2,6.640e-4,-3.849e-2,1.328e-5,-7.699e-4,1.328e-5,-7.699e-4,3.676e-5,3.849e-3,6.200e+1,6.493e+3,2.965e-5,0.000e+3,6.200e+1,6.493e+3,7.353e-5,-7.700e-3,1.000e+0,0.000e+3
1.837e+06,4.999e+0,3.422e-2,5.247e-4,-3.422e-2,1.049e-5,-6.844e-4,1.049e-5,-6.844e-4,2.904e-5,3.422e-3,6.200e+1,7.304e+3,2.342e-5,5.294e-23,6.200e+1,7.304e+3,5.810e-5,-6.845e-3,1.000e+0,0.000e+3
2.041e+06,5.000e+0,3.080e-2,4.250e-4,-3.080e-2,8.500e-6,-6.159e-4,8.500e-6,-6.159e-4,2.353e-5,3.080e-3,6.200e+1,8.116e+3,1.897e-5,0.000e+3,6.200e+1,8.116e+3,4.706e-5,-6.160e-3,1.000e+0,0.000e+3
2.245e+06,5.000e+0,2.800e-2,3.512e-4,-2.800e-2,7.025e-6,-5.600e-4,7.025e-6,-5.600e-4,1.944e-5,2.800e-3,6.200e+1,8.928e+3,1.568e-5,2.647e-23,6.200e+1,8.928e+3,3.889e-5,-5.600e-3,1.000e+0,0.000e+3
2.449e+06,5.000e+0,2.567e-2,2.951e-4,-2.567e-2,5.903e-6,-5.133e-4,5.903e-6,-5.133e-4,1.634e-5,2.567e-3,6.200e+1,9.740e+3,1.318e-5,0.000e+3,6.200e+1,9.740e+3,3.268e-5,-5.133e-3,1.000e+0,0.000e+3
2.653e+06,5.000e+0,2.369e-2,2.515e-4,-2.369e-2,5.029e-6,-4.738e-4,5.029e-6,-4.738e-4,1.392e-5,2.369e-3,6.200e+1,1.055e+4,1.123e-5,0.000e+3,6.200e+1,1.055e+4,2.784e-5,-4.739e-3,1.000e+0,0.000e+3
2.857e+06,5.000e+0,2.200e-2,2.168e-4,-2.200e-2,4.337e-6,-4.400e-4,4.337e-6,-4.400e-4,1.200e-5,2.200e-3,6.200e+1,1.136e+4,9.680e-6,0.000e+3,6.200e+1,1.136e+4,2.401e-5,-4.400e-3,1.000e+0,0.000e+3
3.061e+06,5.000e+0,2.053e-2,1.889e-4,-2.053e-2,3.778e-6,-4.107e-4,3.778e-6,-4.107e-4,1.046e-5,2.053e-3,6.200e+1,1.217e+4,8.432e-6,0.000e+3,6.200e+1,1.217e+4,2.091e-5,-4.107e-3,1.000e+0,0.000e+3
3.265e+06,5.000e+0,1.925e-2,1.660e-4,-1.925e-2,3.320e-6,-3.850e-4,3.320e-6,-3.850e-4,9.190e-6,1.925e-3,6.200e+1,1.299e+4,7.411e-6,1.323e-23,6.200e+1,1.299e+4,1.838e-5,-3.850e-3,1.000e+0,0.000e+3
3.469e+06,5.000e+0,1.812e-2,1.471e-4,-1.812e-2,2.941e-6,-3.623e-4,2.941e-6,-3.623e-4,8.141e-6,1.812e-3,6.200e+1,1.380e+4,6.565e-6,6.617e-24,6.200e+1,1.380e+4,1.628e-5,-3.624e-3,1.000e+0,0.000e+3
3.673e+06,5.000e+0,1.711e-2,1.312e-4,-1.711e-2,2.623e-6,-3.422e-4,2.623e-6,-3.422e-4,7.261e-6,1.711e-3,6.200e+1,1.461e+4,5.856e-6,0.000e+3,6.200e+1,1.461e+4,1.452e-5,-3.422e-3,1.000e+0,0.000e+3
3.878e+06,5.000e+0,1.621e-2,1.177e-4,-1.621e-2,2.355e-6,-3.242e-4,2.355e-6,-3.242e-4,6.517e-6,1.621e-3,6.200e+1,1.542e+4,5.256e-6,0.000e+3,6.200e+1,1.542e+4,1.303e-5,-3.242e-3,1.000e+0,0.000e+3
4.082e+06,5.000e+0,1.540e-2,1.062e-4,-1.540e-2,2.125e-6,-3.080e-4,2.125e-6,-3.080e-4,5.882e-6,1.540e-3,6.200e+1,1.623e+4,4.743e-6,0.000e+3,6.200e+1,1.623e+4,1.176e-5,-3.080e-3,1.000e+0,0.000e+3
4.286e+06,5.000e+0,1.467e-2,9.637e-5,-1.467e-2,1.927e-6,-2.933e-4,1.927e-6,-2.933e-4,5.335e-6,1.467e-3,6.200e+1,1.705e+4,4.302e-6,3.309e-24,6.200e+1,1.705e+4,1.067e-5,-2.933e-3,1.000e+0,0.000e+3
4.49e+06,5.000e+0,1.400e-2,8.781e-5,-1.400e-2,1.756e-6,-2.800e-4,1.756e-6,-2.800e-4,4.861e-6,1.400e-3,6.200e+1,1.786e+4,3.920e-6,-3.309e-24,6.200e+1,1.786e+4,9.722e-6,-2.800e-3,1.000e+0,0.000e+3
4.694e+06,5.000e+0,1.339e-2,8.034e-5,-1.339e-2,1.607e-6,-2.678e-4,1.607e-6,-2.678e-4,4.447e-6,1.339e-3,6.200e+1,1.867e+4,3.587e-6,0.000e+3,6.200e+1,1.867e+4,8.895e-6,-2.678e-3,1.000e+0,0.000e+3
4.898e+06,5.000e+0,1.283e-2,7.378e-5,-1.283e-2,1.476e-6,-2.567e-4,1.476e-6,-2.567e-4,4.084e-6,1.283e-3,6.200e+1,1.948e+4,3.294e-6,0.000e+3,6.200e+1,1.948e+4,8.169e-6,-2.567e-3,1.000e+0,0.000e+3
5.102e+06,5.000e+0,1.232e-2,6.800e-5,-1.232e-2,1.360e-6,-2.464e-4,1.360e-6,-2.464e-4,3.764e-6,1.232e-3,6.200e+1,2.029e+4,3.036e-6,0.000e+3,6.200e+1,2.029e+4,7.529e-6,-2.464e-3,1.000e+0,0.000e+3
5.306e+06,5.000e+0,1.185e-2,6.287e-5,-1.185e-2,1.257e-6,-2.369e-4,1.257e-6,-2.369e-4,3.480e-6,1.185e-3,6.200e+1,2.110e+4,2.807e-6,0.000e+3,6.200e+1,2.110e+4,6.961e-6,-2.369e-3,1.000e+0,0.000e+3
5.51e+06,5.000e+0,1.141e-2,5.830e-5,-1.141e-2,1.166e-6,-2.281e-4,1.166e-6,-2.281e-4,3.227e-6,1.141e-3,6.200e+1,2.192e+4,2.603e-6,0.000e+3,6.200e+1,2.192e+4,6.455e-6,-2.282e-3,1.000e+0,0.000e+3
5.714e+06,5.000e+0,1.100e-2,5.421e-5,-1.100e-2,1.084e-6,-2.200e-4,1.084e-6,-2.200e-4,3.001e-6,1.100e-3,6.200e+1,2.273e+4,2.420e-6,0.000e+3,6.200e+1,2.273e+4,6.002e-6,-2.200e-3,1.000e+0,0.000e+3
5.918e+06,5.000e+0,1.062e-2,5.053e-5,-1.062e-2,1.011e-6,-2.124e-4,1.011e-6,-2.124e-4,2.797e-6,1.062e-3,6.200e+1,2.354e+4,2.256e-6,0.000e+3,6.200e+1,2.354e+4,5.595e-6,-2.124e-3,1.000e+0,0.000e+3
6.122e+06,5.000e+0,1.027e-2,4.722e-5,-1.027e-2,9.444e-7,-2.053e-4,9.444e-7,-2.053e-4,2.614e-6,1.027e-3,6.200e+1,2.435e+4,2.108e-6,0.000e+3,6.200e+1,2.435e+4,5.228e-6,-2.053e-3,1.000e+0,0.000e+3
6.327e+06,5.000e+0,9.935e-3,4.422e-5,-9.935e-3,8.845e-7,-1.987e-4,8.845e-7,-1.987e-4,2.448e-6,9.935e-4,6.200e+1,2.516e+4,1.974e-6,0.000e+3,6.200e+1,2.516e+4,4.896e-6,-1.987e-3,1.000e+0,0.000e+3
6.531e+06,5.000e+0,9.625e-3,4.150e-5,-9.625e-3,8.301e-7,-1.925e-4,8.301e-7,-1.925e-4,2.298e-6,9.625e-4,6.200e+1,2.597e+4,1.853e-6,0.000e+3,6.200e+1,2.597e+4,4.595e-6,-1.925e-3,1.000e+0,0.000e+3
6.735e+06,5.000e+0,9.333e-3,3.903e-5,-9.333e-3,7.805e-7,-1.867e-4,7.805e-7,-1.867e-4,2.160e-6,9.333e-4,6.200e+1,2.679e+4,1.742e-6,0.000e+3,6.200e+1,2.679e+4,4.321e-6,-1.867e-3,1.000e+0,0.000e+3
6.939e+06,5.000e+0,9.059e-3,3.676e-5,-9.059e-3,7.353e-7,-1.812e-4,7.353e-7,-1.812e-4,2.035e-6,9.059e-4,6.200e+1,2.760e+4,1.641e-6,-8.272e-25,6.200e+1,2.760e+4,4.070e-6,-1.812e-3,1.000e+0,0.000e+3
7.143e+06,5.000e+0,8.800e-3,3.469e-5,-8.800e-3,6.939e-7,-1.760e-4,6.939e-7,-1.760e-4,1.921e-6,8.800e-4,6.200e+1,2.841e+4,1.549e-6,0.000e+3,6.200e+1,2.841e+4,3.841e-6,-1.760e-3,1.000e+0,0.000e+3
7.347e+06,5.000e+0,8.556e-3,3.279e-5,-8.556e-3,6.559e-7,-1.711e-4,6.559e-7,-1.711e-4,1.815e-6,8.556e-4,6.200e+1,2.922e+4,1.464e-6,0.000e+3,6.200e+1,2.922e+4,3.631e-6,-1.711e-3,1.000e+0,0.000e+3
7.551e+06,5.000e+0,8.324e-3,3.104e-5,-8.324e-3,6.209e-7,-1.665e-4,6.209e-7,-1.665e-4,1.719e-6,8.324e-4,6.200e+1,3.003e+4,1.386e-6,8.272e-25,6.200e+1,3.003e+4,3.437e-6,-1.665e-3,1.000e+0,0.000e+3
7.755e+06,5.000e+0,8.105e-3,2.943e-5,-8.105e-3,5.886e-7,-1.621e-4,5.886e-7,-1.621e-4,1.629e-6,8.105e-4,6.200e+1,3.084e+4,1.314e-6,8.272e-25,6.200e+1,3.084e+4,3.259e-6,-1.621e-3,1.000e+0,0.000e+3
7.959e+06,5.000e+0,7.897e-3,2.794e-5,-7.897e-3,5.588e-7,-1.579e-4,5.588e-7,-1.579e-4,1.547e-6,7.897e-4,6.200e+1,3.166e+4,1.247e-6,8.272e-25,6.200e+1,3.166e+4,3.094e-6,-1.579e-3,1.000e+0,0.000e+3
8.163e+06,5.000e+0,7.700e-3,2.656e-5,-7.700e-3,5.312e-7,-1.540e-4,5.312e-7,-1.540e-4,1.470e-6,7.700e-4,6.200e+1,3.247e+4,1.186e-6,-8.272e-25,6.200e+1,3.247e+4,2.941e-6,-1.540e-3,1.000e+0,0.000e+3
8.367e+06,5.000e+0,7.512e-3,2.528e-5,-7.512e-3,5.056e-7,-1.502e-4,5.056e-7,-1.502e-4,1.400e-6,7.512e-4,6.200e+1,3.328e+4,1.129e-6,0.000e+3,6.200e+1,3.328e+4,2.799e-6,-1.502e-3,1.000e+0,0.000e+3
8.571e+06,5.000e+0,7.333e-3,2.409e-5,-7.333e-3,4.819e-7,-1.467e-4,4.819e-7,-1.467e-4,1.334e-6,7.333e-4,6.200e+1,3.409e+4,1.076e-6,0.000e+3,6.200e+1,3.409e+4,2.667e-6,-1.467e-3,1.000e+0,0.000e+3
8.776e+06,5.000e+0,7.163e-3,2.299e-5,-7.163e-3,4.597e-7,-1.433e-4,4.597e-7,-1.433e-4,1.272e-6,7.163e-4,6.200e+1,3.490e+4,1.026e-6,0.000e+3,6.200e+1,3.490e+4,2.545e-6,-1.433e-3,1.000e+0,0.000e+3
8.98e+06,5.000e+0,7.000e-3,2.195e-5,-7.000e-3,4.390e-7,-1.400e-4,4.390e-7,-1.400e-4,1.215e-6,7.000e-4,6.200e+1,3.571e+4,9.800e-7,-4.136e-25,6.200e+1,3.571e+4,2.430e-6,-1.400e-3,1.000e+0,0.000e+3
9.184e+06,5.000e+0,6.844e-3,2.099e-5,-6.844e-3,4.197e-7,-1.369e-4,4.197e-7,-1.369e-4,1.162e-6,6.844e-4,6.200e+1,3.653e+4,9.369e-7,0.000e+3,6.200e+1,3.653e+4,2.324e-6,-1.369e-3,1.000e+0,0.000e+3
9.388e+06,5.000e+0,6.696e-3,2.008e-5,-6.696e-3,4.017e-7,-1.339e-4,4.017e-7,-1.339e-4,1.112e-6,6.696e-4,6.200e+1,3.734e+4,8.966e-7,4.136e-25,6.200e+1,3.734e+4,2.224e-6,-1.339e-3,1.000e+0,0.000e+3
9.592e+06,5.000e+0,6.553e-3,1.924e-5,-6.553e-3,3.848e-7,-1.311e-4,3.848e-7,-1.311e-4,1.065e-6,6.553e-4,6.200e+1,3.815e+4,8.589e-7,0.000e+3,6.200e+1,3.815e+4,2.130e-6,-1.311e-3,1.000e+0,0.000e+3
9.796e+06,5.000e+0,6.417e-3,1.845e-5,-6.417e-3,3.689e-7,-1.283e-4,3.689e-7,-1.283e-4,1.021e-6,6.417e-4,6.200e+1,3.896e+4,8.235e-7,-4.136e-25,6.200e+1,3.896e+4,2.042e-6,-1.283e-3,1.000e+0,0.000e+3
1e+07,5.000e+0,6.286e-3,1.770e-5,-6.286e-3,3.540e-7,-1.257e-4,3.540e-7,-1.257e-4,9.799e-7,6.286e-4,6.200e+1,3.977e+4,7.902e-7,4.136e-25,6.200e+1,3.977e+4,1.960e-6,-1.257e-3,1.000e+0,0.000e+3
